
**** 11/03/21 14:16:05 *********** Evaluation PSpice (Nov 1999) **************

 * C:\Users\raiha\OneDrive\Desktop\Courses\CSE250\Lab simulation\Fgure 2.sch


 ****     CIRCUIT DESCRIPTION


******************************************************************************




* Schematics Version 9.1 - Web Update 1
* Wed Nov 03 14:16:05 2021



** Analysis setup **
.OP 


* From [PSPICE NETLIST] section of pspiceev.ini:
.lib "nom.lib"

.INC "Fgure 2.net"

**** INCLUDING "Fgure 2.net" ****
* Schematics Netlist *



R_R6         0 $N_0001  1k  
R_R4         0 $N_0002  1k  
R_R2         0 $N_0003  1k  
R_R1         $N_0004 $N_0003  10k  
R_R3         $N_0003 $N_0002  10k  
R_R5         $N_0002 $N_0001  10k  
V_V1         $N_0004 0 12V

**** RESUMING "Fgure 2.cir" ****
.INC "Fgure 2.als"



**** INCLUDING "Fgure 2.als" ****
* Schematics Aliases *

.ALIASES
R_R6            R6(1=0 2=$N_0001 )
R_R4            R4(1=0 2=$N_0002 )
R_R2            R2(1=0 2=$N_0003 )
R_R1            R1(1=$N_0004 2=$N_0003 )
R_R3            R3(1=$N_0003 2=$N_0002 )
R_R5            R5(1=$N_0002 2=$N_0001 )
V_V1            V1(+=$N_0004 -=0 )
.ENDALIASES


**** RESUMING "Fgure 2.cir" ****
.probe


.END

**** 11/03/21 14:16:05 *********** Evaluation PSpice (Nov 1999) **************

 * C:\Users\raiha\OneDrive\Desktop\Courses\CSE250\Lab simulation\Fgure 2.sch


 ****     SMALL SIGNAL BIAS SOLUTION       TEMPERATURE =   27.000 DEG C


******************************************************************************



 NODE   VOLTAGE     NODE   VOLTAGE     NODE   VOLTAGE     NODE   VOLTAGE


($N_0001)     .0077                   ($N_0002)     .0846                       

($N_0003)    1.0070                   ($N_0004)   12.0000                   




    VOLTAGE SOURCE CURRENTS
    NAME         CURRENT

    V_V1        -1.099E-03

    TOTAL POWER DISSIPATION   1.32E-02  WATTS


**** 11/03/21 14:16:05 *********** Evaluation PSpice (Nov 1999) **************

 * C:\Users\raiha\OneDrive\Desktop\Courses\CSE250\Lab simulation\Fgure 2.sch


 ****     OPERATING POINT INFORMATION      TEMPERATURE =   27.000 DEG C


******************************************************************************





          JOB CONCLUDED

          TOTAL JOB TIME            0.00
