
**** 11/03/21 14:08:22 *********** Evaluation PSpice (Nov 1999) **************

 * C:\Users\raiha\OneDrive\Desktop\Courses\CSE250\Lab simulation\Figure 1.sch


 ****     CIRCUIT DESCRIPTION


******************************************************************************




* Schematics Version 9.1 - Web Update 1
* Wed Nov 03 14:08:22 2021



** Analysis setup **
.OP 


* From [PSPICE NETLIST] section of pspiceev.ini:
.lib "nom.lib"

.INC "Figure 1.net"

**** INCLUDING "Figure 1.net" ****
* Schematics Netlist *



R_R3         $N_0002 $N_0001  1k  
R_R4         0 $N_0002  1k  
R_R1         $N_0003 $N_0001  10k  
R_R2         $N_0003 $N_0001  10k  
V_V1         $N_0003 0 12V

**** RESUMING "Figure 1.cir" ****
.INC "Figure 1.als"



**** INCLUDING "Figure 1.als" ****
* Schematics Aliases *

.ALIASES
R_R3            R3(1=$N_0002 2=$N_0001 )
R_R4            R4(1=0 2=$N_0002 )
R_R1            R1(1=$N_0003 2=$N_0001 )
R_R2            R2(1=$N_0003 2=$N_0001 )
V_V1            V1(+=$N_0003 -=0 )
.ENDALIASES


**** RESUMING "Figure 1.cir" ****
.probe


.END

**** 11/03/21 14:08:22 *********** Evaluation PSpice (Nov 1999) **************

 * C:\Users\raiha\OneDrive\Desktop\Courses\CSE250\Lab simulation\Figure 1.sch


 ****     SMALL SIGNAL BIAS SOLUTION       TEMPERATURE =   27.000 DEG C


******************************************************************************



 NODE   VOLTAGE     NODE   VOLTAGE     NODE   VOLTAGE     NODE   VOLTAGE


($N_0001)    3.4286                   ($N_0002)    1.7143                       

($N_0003)   12.0000                   




    VOLTAGE SOURCE CURRENTS
    NAME         CURRENT

    V_V1        -1.714E-03

    TOTAL POWER DISSIPATION   2.06E-02  WATTS


**** 11/03/21 14:08:22 *********** Evaluation PSpice (Nov 1999) **************

 * C:\Users\raiha\OneDrive\Desktop\Courses\CSE250\Lab simulation\Figure 1.sch


 ****     OPERATING POINT INFORMATION      TEMPERATURE =   27.000 DEG C


******************************************************************************





          JOB CONCLUDED

          TOTAL JOB TIME             .02
