
**** 11/16/21 14:26:00 *********** Evaluation PSpice (Nov 1999) **************

 * C:\Users\raiha\OneDrive\Desktop\Courses\CSE250\Lab simulation\Lab3 circuite 1.sch


 ****     CIRCUIT DESCRIPTION


******************************************************************************




* Schematics Version 9.1 - Web Update 1
* Tue Nov 16 14:25:56 2021



** Analysis setup **
.OP 


* From [PSPICE NETLIST] section of pspiceev.ini:
.lib "nom.lib"

.INC "Lab3 circuite 1.net"

**** INCLUDING "Lab3 circuite 1.net" ****
* Schematics Netlist *



V_V1         $N_0001 0 11.5
R_R1         $N_0001 $N_0002  4k  
R_R2         $N_0002 $N_0003  9.5k  
R_R3         $N_0003 0  5.5k  

**** RESUMING "Lab3 circuite 1.cir" ****
.INC "Lab3 circuite 1.als"



**** INCLUDING "Lab3 circuite 1.als" ****
* Schematics Aliases *

.ALIASES
V_V1            V1(+=$N_0001 -=0 )
R_R1            R1(1=$N_0001 2=$N_0002 )
R_R2            R2(1=$N_0002 2=$N_0003 )
R_R3            R3(1=$N_0003 2=0 )
.ENDALIASES


**** RESUMING "Lab3 circuite 1.cir" ****
.probe


.END

**** 11/16/21 14:26:00 *********** Evaluation PSpice (Nov 1999) **************

 * C:\Users\raiha\OneDrive\Desktop\Courses\CSE250\Lab simulation\Lab3 circuite 1.sch


 ****     SMALL SIGNAL BIAS SOLUTION       TEMPERATURE =   27.000 DEG C


******************************************************************************



 NODE   VOLTAGE     NODE   VOLTAGE     NODE   VOLTAGE     NODE   VOLTAGE


($N_0001)   11.5000                   ($N_0002)    9.0789                       

($N_0003)    3.3289                   




    VOLTAGE SOURCE CURRENTS
    NAME         CURRENT

    V_V1        -6.053E-04

    TOTAL POWER DISSIPATION   6.96E-03  WATTS


**** 11/16/21 14:26:00 *********** Evaluation PSpice (Nov 1999) **************

 * C:\Users\raiha\OneDrive\Desktop\Courses\CSE250\Lab simulation\Lab3 circuite 1.sch


 ****     OPERATING POINT INFORMATION      TEMPERATURE =   27.000 DEG C


******************************************************************************





          JOB CONCLUDED

          TOTAL JOB TIME            0.00
